freq[Hz];re:Trc1_S11;im:Trc1_S11;re:Trc2_S41;im:Trc2_S41;re:Trc3_S13;im:Trc3_S13;re:Trc4_S14;im:Trc4_S14;re:Trc5_S21;im:Trc5_S21;re:Trc6_S22;im:Trc6_S22;re:Trc7_S23;im:Trc7_S23;re:Trc8_S24;im:Trc8_S24;re:Trc9_S31;im:Trc9_S31;re:Trc10_S32;im:Trc10_S32;re:Trc11_S33;im:Trc11_S33;re:Trc12_S34;im:Trc12_S34;re:Trc13_S41;im:Trc13_S41;re:Trc14_S42;im:Trc14_S42;re:Trc15_S43;im:Trc15_S43;re:Trc16_S22;im:Trc16_S22;re:Trc17_S22;im:Trc17_S22;
3.000000000000000E+005;-1.000672074237862E+000;1.648286231404285E-002;6.342430973144799E-007;2.973420383656745E-006;-1.531080507528834E-007;-4.380291108937328E-007;1.105240086199741E-006;-1.349284098960787E-007;-1.891830973075529E-004;4.990589032394753E-005;4.670222832938020E-001;-2.630950118747619E-002;-1.897272997675410E-005;2.056845022063294E-004;-1.640857786124440E-004;1.007209489127173E-004;2.307953893176671E-006;1.899770084474924E-006;-4.896150684617064E-006;2.824075707344508E-006;9.985187905090239E-001;-2.924470534042681E-003;-1.557048928750574E-006;5.764307933479065E-006;6.342430973144799E-007;2.973420383656745E-006;3.082701314366382E-006;4.758393144582430E-006;-6.947908025630186E-007;1.162559718918590E-006;4.670222832938020E-001;-2.630950118747619E-002;4.670222832938020E-001;-2.630950118747619E-002;
1.633146292585170E+007;-9.814208831399555E-001;1.477906471284174E-001;-1.303046651889338E-006;2.739373836356891E-006;2.041525088448272E-006;-5.958627103003889E-007;-1.917786906445608E-006;-2.988129316956816E-006;-1.330071242256789E-006;-3.495666506233182E-006;4.546976502188658E-001;-7.418469242757365E-002;-5.099726750189458E-007;-4.352447326274711E-006;-2.124683123247817E-007;-5.258547041599667E-007;-1.619180301973137E-007;3.192464358352201E-007;5.898311102119085E-007;-2.930067909456841E-006;9.991527555129119E-001;-4.562151354057289E-003;2.445015278040184E-006;-8.541395440160801E-007;-1.303046651889338E-006;2.739373836356891E-006;2.121452099412562E-006;4.187972056594989E-006;4.174527648621332E-007;5.303325480076433E-006;4.546976502188658E-001;-7.418469242757365E-002;4.546976502188658E-001;-7.418469242757365E-002;
3.236292585170341E+007;-9.484421009137884E-001;2.855820141746427E-001;-1.163522182878401E-005;4.125546195808129E-006;-7.914812024405442E-006;6.092477644895904E-006;-5.381115799008750E-006;-2.650985741043245E-006;4.517318293219077E-006;1.278535801415603E-006;4.359350710589499E-001;-1.389202975071676E-001;2.081498351156270E-006;4.381616978848713E-006;6.532563782538848E-006;-6.112380932185419E-006;-6.211509931711868E-006;9.685066398274492E-006;-7.929672174363673E-006;4.238697112770598E-007;9.995315704977136E-001;-8.317446833300853E-003;-2.557635958844016E-007;-5.449985732935872E-006;-1.163522182878401E-005;4.125546195808129E-006;-5.289889123500497E-006;-8.552581875942958E-007;5.501588839665405E-006;-3.587569239680700E-006;4.359350710589499E-001;-1.389202975071676E-001;4.359350710589499E-001;-1.389202975071676E-001;
4.839438877755511E+007;-9.003851809763002E-001;4.079183923591127E-001;-6.876459617192579E-006;-5.650438151044605E-006;3.644592484846401E-006;2.529547969590852E-006;2.908954045385437E-006;-8.188942415025236E-006;-5.589746036031485E-006;-1.962388017728599E-006;4.093829575838344E-001;-2.010933365683510E-001;1.232571353878064E-006;-3.616095618478487E-006;7.439293270812508E-007;-3.303416463271439E-006;1.052410738314465E-007;3.442422313014730E-006;-6.590317606121276E-006;-1.180162262989037E-006;9.971762654740779E-001;-1.715052784182843E-002;-7.848653049829655E-007;-6.052688627101172E-006;-6.876459617192579E-006;-5.650438151044605E-006;5.858365235373918E-006;4.701842278810142E-006;-4.010851991966872E-006;3.008843132663734E-006;4.093829575838344E-001;-2.010933365683510E-001;4.093829575838344E-001;-2.010933365683510E-001;
6.442585170340681E+007;-8.359261689116200E-001;5.226632758334171E-001;-3.731397392028193E-005;1.500328378061911E-005;-5.118469857307568E-006;-4.741357348237709E-006;-3.231574392854141E-005;1.596516982600808E-005;2.957514161823774E-006;-8.351708165113899E-007;3.732686164014267E-001;-2.583970930265611E-001;-2.900800624644105E-006;-3.495366334802184E-006;2.005777511000732E-006;2.653107716510050E-006;1.834802059425666E-006;1.463920580482153E-006;5.366914354894333E-007;1.021979926239436E-005;9.977764128870929E-001;-2.365175933233246E-002;1.618712466575171E-006;7.828797014110068E-007;-3.731397392028193E-005;1.500328378061911E-005;-1.280771160829468E-006;-7.705281408012168E-007;4.625124886602210E-006;-3.610650731538336E-006;3.732686164014267E-001;-2.583970930265611E-001;3.732686164014267E-001;-2.583970930265611E-001;
8.045731462925851E+007;-7.546529544839915E-001;6.285656587956890E-001;4.312767563858858E-005;7.664193037976199E-005;3.058046672580400E-006;5.142576853225259E-006;4.039568903465168E-005;7.694653359157113E-005;-7.483608970261184E-006;1.137678395826812E-006;3.290727080695199E-001;-3.082163612841630E-001;1.749107236408416E-007;-1.070746770722018E-007;6.143634389403024E-007;-4.623909619024509E-006;1.464895573231558E-005;5.885317800687076E-006;-2.136476735032300E-006;4.634900090342123E-006;9.964667152656699E-001;-2.530114081609959E-002;1.865946528173934E-006;3.535029827731078E-006;4.312767563858858E-005;7.664193037976199E-005;-2.661002364138628E-006;6.867136310017502E-006;-9.979980347434911E-007;9.566372285820612E-007;3.290727080695199E-001;-3.082163612841630E-001;3.290727080695199E-001;-3.082163612841630E-001;
9.648877755511022E+007;-6.487143336889899E-001;7.353566872208708E-001;1.364054726196327E-004;-6.739185640609561E-005;6.758243356184771E-006;-2.377316983829350E-006;1.273921346049677E-004;-7.099197117811026E-005;-1.788429389659631E-006;7.877973620841333E-006;2.778203612180896E-001;-3.510651392595112E-001;-5.509482217538164E-006;3.931300646369768E-006;-1.086526204085624E-006;-1.141541259432812E-005;2.362959203317377E-007;-1.135226067851562E-006;-1.573380808160149E-006;-2.672657707035424E-006;9.937185254081372E-001;-2.738742000474457E-002;4.160492448225265E-006;5.804832407688067E-007;1.364054726196327E-004;-6.739185640609561E-005;-8.832749782660292E-006;-8.888969282894802E-006;-6.438587484124210E-008;2.215101104489322E-006;2.778203612180896E-001;-3.510651392595112E-001;2.778203612180896E-001;-3.510651392595112E-001;
1.125202404809619E+008;-5.505577942062446E-001;8.106822348368281E-001;-3.710174354765819E-005;-7.437883794032761E-005;-5.401203030545339E-007;-1.049133833514935E-005;-3.747558187606716E-005;-7.911944627012585E-005;5.767435876665677E-006;4.151387551659328E-006;2.209582149871069E-001;-3.860411886333879E-001;-1.053268549592224E-006;-5.482266984712587E-006;-1.241553960369883E-006;4.273622040027512E-006;8.964096033482738E-006;6.629687713140201E-006;-2.288320683678874E-006;-1.230266357706463E-005;9.909432055483525E-001;-2.802322294651861E-002;3.840810837800385E-006;-2.898262237294075E-006;-3.710174354765819E-005;-7.437883794032761E-005;-1.443582895533211E-005;-6.086106119809875E-006;-1.082733147847352E-005;-2.237184994630851E-006;2.209582149871069E-001;-3.860411886333879E-001;2.209582149871069E-001;-3.860411886333879E-001;
1.285517034068136E+008;-4.214764543140148E-001;8.849541976263438E-001;-3.482884872898819E-005;-5.923888965227313E-005;3.432055091264547E-006;2.048669814205648E-006;-3.173601574317183E-005;-6.455555201179491E-005;-2.093396723967945E-006;-5.077795813072131E-007;1.602556419805010E-001;-4.123247544378880E-001;-6.425711077888928E-006;-1.415660936146702E-006;4.383536494774688E-007;9.924289058794052E-007;-6.147830658915685E-007;-4.669191344115955E-006;-1.107834501146300E-006;-2.854010914308417E-006;9.914200787515831E-001;-2.673521235368790E-002;2.325590233708404E-006;-2.228842753563089E-006;-3.482884872898819E-005;-5.923888965227313E-005;-1.102705516292327E-005;-5.223448498130343E-006;6.928833018955726E-007;4.338932548756646E-006;1.602556419805010E-001;-4.123247544378880E-001;1.602556419805010E-001;-4.123247544378880E-001;
1.445831663326653E+008;-2.994984820920540E-001;9.312435641104303E-001;-1.897273650046814E-005;-1.872770122502536E-004;6.127273268663631E-006;6.294143798329760E-006;-1.804098944605468E-005;-1.787528002440830E-004;3.272421883759393E-006;3.334456447848687E-006;9.749044128289210E-002;-4.295111694599179E-001;-3.808346040101399E-006;-8.044571506623523E-007;-4.654548258222541E-006;-1.077613493013809E-006;-5.697509399190190E-006;-2.652845136367211E-006;-1.049723710040228E-007;-1.759925556703083E-006;9.928731223100625E-001;-2.327325521481052E-002;6.610838830937053E-006;5.622870330179844E-006;-1.897273650046814E-005;-1.872770122502536E-004;-5.765597646898386E-007;3.590395683240674E-006;-1.798937316283856E-006;-4.360412653453822E-006;9.749044128289210E-002;-4.295111694599179E-001;9.749044128289210E-002;-4.295111694599179E-001;
1.606146292585170E+008;-1.670282188566324E-001;9.598132539985999E-001;-5.314740388782264E-004;-1.840435427895370E-004;9.878849037307512E-006;7.819259215070084E-006;-5.535788351872260E-004;-1.928385561202530E-004;9.162910521043950E-007;1.664383837538915E-006;3.520756766918323E-002;-4.383819946781519E-001;7.043933447606999E-006;-3.089097138901184E-006;4.896045388238908E-006;6.478142052404248E-006;5.480381943714695E-006;-5.002286647781978E-006;2.711537903762774E-007;2.562792964466102E-006;9.973420968804606E-001;-2.576217875628896E-002;4.958891442398954E-006;6.409534103160359E-006;-5.314740388782264E-004;-1.840435427895370E-004;3.124046512919188E-006;5.128912855152164E-006;4.179960266794449E-006;5.277859295935279E-006;3.520756766918323E-002;-4.383819946781519E-001;3.520756766918323E-002;-4.383819946781519E-001;
1.766460921843687E+008;-4.627922927327505E-002;9.640008289040988E-001;-1.031878076329585E-003;6.932759479932843E-004;3.194406364243531E-006;-1.089325204607694E-005;-1.017304485672412E-003;6.913091005443346E-004;-2.797736188616941E-006;5.876620338724136E-006;-2.465937024162473E-002;-4.424122332052350E-001;-3.070587059951565E-006;-3.288151764233246E-006;-1.884003940786853E-006;-4.754608041681460E-006;-4.606328592592410E-006;-2.888899044738934E-006;1.441724150867588E-006;2.184213384098538E-006;1.001947114085626E+000;-2.782011981144918E-002;1.262873037691256E-005;3.406011087511477E-006;-1.031878076329585E-003;6.932759479932843E-004;3.785731832511690E-006;-6.347342996969109E-006;-6.366804514862384E-006;-2.541088898864260E-006;-2.465937024162473E-002;-4.424122332052350E-001;-2.465937024162473E-002;-4.424122332052350E-001;
1.926775551102204E+008;9.594264234350394E-002;9.554901305439749E-001;9.371423054230127E-004;2.215824742620045E-003;-3.399471554183540E-006;4.689514776143110E-006;9.471756880955932E-004;2.224321726229206E-003;-5.336757428472286E-006;4.712030317001329E-006;-9.040931327828683E-002;-4.530237350194309E-001;3.456846321949441E-006;-6.498790477627157E-006;-1.140616687206568E-005;-2.748861393917448E-007;-5.189170317770803E-006;-5.955914939656087E-006;-1.234678506385444E-006;-4.336816826913496E-006;1.006152958128433E+000;-3.323032318486405E-002;-6.469680609068394E-006;-2.037716093646455E-006;9.371423054230127E-004;2.215824742620045E-003;-9.377608746830762E-006;-1.179814416118041E-005;-3.639194111601221E-006;3.734126555762879E-006;-9.040931327828683E-002;-4.530237350194309E-001;-9.040931327828683E-002;-4.530237350194309E-001;
2.087090180360721E+008;2.017347272163710E-001;9.374124712990378E-001;1.800965864243085E-003;-8.472583339644869E-004;2.087077658343206E-006;1.526735552491025E-006;1.787049555938418E-003;-8.553512784375073E-004;-1.545183694066948E-006;1.811033163238380E-006;-2.068116140200322E-001;-4.399180508441977E-001;3.065707057186423E-006;-1.278781857334007E-006;1.857948924654175E-006;4.185947985670504E-006;-4.834008474287879E-006;-1.558897788072909E-006;-8.335073309709207E-006;5.082995764239102E-007;1.008023577139602E+000;-4.169721271816127E-002;-1.674309175746635E-006;2.974979094500221E-006;1.800965864243085E-003;-8.472583339644869E-004;6.472102225432525E-006;6.464135526630896E-006;-5.255871337415083E-006;2.665786904307164E-006;-2.068116140200322E-001;-4.399180508441977E-001;-2.068116140200322E-001;-4.399180508441977E-001;
2.247404809619238E+008;3.315351149568881E-001;8.958034018247078E-001;6.599579242611617E-004;-2.053621294517007E-003;-4.894774256157718E-006;-1.043104421413045E-006;7.147938582683122E-004;-2.040508656371514E-003;4.667890525293012E-007;1.160542008471972E-005;-2.722647019863477E-001;-3.543147246412829E-001;-4.428650854420388E-007;-2.663455877490456E-008;1.338321278450132E-006;-1.595742736185234E-006;6.846203680278069E-006;-7.596526274995530E-006;-7.556785470159400E-007;5.476484604039739E-006;1.009682484919166E+000;-4.558876030869532E-002;4.389755723846825E-006;-7.085078687035585E-007;6.599579242611617E-004;-2.053621294517007E-003;8.489251740374072E-006;8.100765479297152E-006;4.486727523275263E-006;7.242112126798605E-007;-2.722647019863477E-001;-3.543147246412829E-001;-2.722647019863477E-001;-3.543147246412829E-001;
2.407719438877755E+008;4.359747316821240E-001;8.380295259335525E-001;-1.752719087380021E-003;-1.522033700460947E-003;9.699448846633052E-007;5.196243700258574E-006;-1.800220594595046E-003;-1.469542833919191E-003;-1.449807266665503E-005;8.660791747507451E-006;-3.060277112812690E-001;-2.958773035765737E-001;-2.005438046516352E-006;4.529531013173842E-006;-1.207941069690352E-006;3.537477237010550E-006;-2.290365531393089E-006;-1.184228381067122E-006;-4.361655551078869E-006;8.238627198774289E-006;1.009386383471010E+000;-5.123931839125608E-002;4.923555391700888E-006;3.238081580206619E-006;-1.752719087380021E-003;-1.522033700460947E-003;1.159507799608556E-006;5.549985475268338E-006;-4.273442498581374E-006;4.714127071038179E-006;-3.060277112812690E-001;-2.958773035765737E-001;-3.060277112812690E-001;-2.958773035765737E-001;
2.568034068136272E+008;5.488847429598395E-001;7.573964915626948E-001;-1.844476988704704E-003;4.406638434411523E-004;7.794898114866323E-006;-2.233654532807631E-006;-1.789650926135211E-003;4.588846040541411E-004;1.963027091075582E-006;-8.283931987137188E-006;-3.390547567241825E-001;-2.413233875628821E-001;-2.492037749646577E-006;6.077808443742147E-007;-9.558686172186565E-007;1.845941455229580E-006;8.852339396144678E-006;3.859328674501020E-006;-2.055574740712979E-006;8.360700253250600E-007;1.009146893605259E+000;-5.693730077280182E-002;6.233262739732128E-006;-1.494643980982854E-006;-1.844476988704704E-003;4.406638434411523E-004;4.392466173727638E-006;4.369929531169850E-006;-4.841485385991147E-006;-1.150756609955328E-005;-3.390547567241825E-001;-2.413233875628821E-001;-3.390547567241825E-001;-2.413233875628821E-001;
2.728348697394790E+008;6.171818718280193E-001;6.892570563651551E-001;-4.874774630109634E-004;6.863873964427040E-004;1.350998918999515E-006;-1.739792588971477E-007;-4.840932878341075E-004;7.011367034304450E-004;2.885147712133126E-007;2.251990524065583E-006;-3.677299109831649E-001;-1.841150472062763E-001;-2.768370249101563E-007;-8.270966485706676E-007;5.528566784252182E-006;1.046569658062690E-006;-9.458372647858246E-006;2.131105624732517E-006;9.156560760226522E-007;-1.771764944552784E-006;1.008033084090191E+000;-6.236112354947570E-002;-7.303880746519991E-006;1.018544047553668E-005;-4.874774630109634E-004;6.863873964427040E-004;-5.973481959091932E-006;-3.245826773352159E-006;4.262949008256537E-007;6.816145667577583E-006;-3.677299109831649E-001;-1.841150472062763E-001;-3.677299109831649E-001;-1.841150472062763E-001;
2.888663326653307E+008;6.872633845584655E-001;6.082571821618370E-001;-2.098028937142967E-004;1.344125829484108E-003;2.867957847163504E-006;7.337347739293291E-006;-2.058453324014982E-004;1.350386755457604E-003;-6.858070434085962E-007;-3.039332464107043E-006;-3.889871777815738E-001;-1.229299789341250E-001;7.344330800890037E-008;9.577604656671039E-007;-3.214202738215788E-006;-5.436798056307304E-006;-1.140060143357720E-005;8.124471952938568E-007;-8.183309572729619E-006;7.101036300023940E-006;1.007119532035043E+000;-6.765155280610521E-002;-6.181302798352462E-006;-4.716988568758175E-006;-2.098028937142967E-004;1.344125829484108E-003;5.050342614993856E-006;9.954206556093370E-007;7.183571364042918E-006;7.085379909141070E-006;-3.889871777815738E-001;-1.229299789341250E-001;-3.889871777815738E-001;-1.229299789341250E-001;
3.048977955911824E+008;7.571631783401639E-001;5.297162871745077E-001;1.682817467594281E-003;1.081419815571890E-003;2.324051249023016E-006;-1.063975162091051E-006;1.635589171091579E-003;1.105841061551675E-003;5.820425180550248E-006;-3.794292179704382E-006;-4.010309132880738E-001;-5.932165782191140E-002;1.588733708062926E-006;-1.185689349839680E-006;4.040397796309029E-006;2.092364766667573E-006;-7.327345371806521E-007;3.378360017424256E-006;7.977310852947241E-007;4.570304231565903E-006;1.006704541010719E+000;-7.284408907046515E-002;-1.024487384845507E-005;-1.403589450147564E-006;1.682817467594281E-003;1.081419815571890E-003;5.744418237759199E-006;7.898094017715948E-006;6.937491033901001E-006;8.838727366181872E-006;-4.010309132880738E-001;-5.932165782191140E-002;-4.010309132880738E-001;-5.932165782191140E-002;
3.209292585170341E+008;8.222906857739742E-001;4.343991390854251E-001;1.911783213131086E-003;-9.560127886561607E-004;-6.021648876342180E-006;5.018444247311828E-006;1.929259749169310E-003;-9.849644649603448E-004;-2.156937704883850E-006;-4.977399105075382E-006;-4.034195023522719E-001;5.700037612012085E-003;-9.466307447998762E-007;-2.855342060767546E-006;3.012443928679143E-006;-2.335295075141189E-006;-5.463163518220974E-006;-9.874219430200554E-006;-2.559700662989965E-006;6.002982665806063E-006;1.005422274149689E+000;-7.700504061447376E-002;3.804822250768149E-008;-1.378577346737492E-006;1.911783213131086E-003;-9.560127886561607E-004;2.496239048125909E-006;2.640134849531248E-006;-3.071144195478832E-006;1.294216695554944E-006;-4.034195023522719E-001;5.700037612012085E-003;-4.034195023522719E-001;5.700037612012085E-003;
3.369607214428858E+008;8.580007775604633E-001;3.533106225959996E-001;-6.408385268742739E-004;-1.542114686380232E-003;4.353653928923700E-006;-6.586727240267266E-006;-6.361589129704204E-004;-1.512758279938505E-003;5.972444508464963E-006;-5.316457837389826E-006;-3.949781309594626E-001;7.033787172221931E-002;5.774764145580387E-006;-2.773264274324754E-006;4.803862805560768E-006;4.770040611132617E-006;5.020854168306734E-006;-1.411733169784709E-006;-7.341290696295281E-006;3.056327862915606E-006;1.004634411718258E+000;-8.096993835265232E-002;-2.873276499111549E-006;8.833381833142868E-006;-6.408385268742739E-004;-1.542114686380232E-003;-3.469215248775092E-006;-3.076695630928258E-006;-1.044534083742109E-006;-5.565546969536831E-006;-3.949781309594626E-001;7.033787172221931E-002;-3.949781309594626E-001;7.033787172221931E-002;
3.529921843687375E+008;8.976076312222500E-001;2.117231122917088E-001;1.467162574579087E-004;2.468706482725048E-004;-5.832271722727137E-007;2.206311507802161E-007;1.510283458801284E-004;2.542557440820075E-004;1.853231130460269E-006;4.392123688058799E-006;-3.764627362082940E-001;1.335517514408028E-001;-1.649131611241270E-006;4.793019014652048E-007;1.654189343683753E-006;6.079444347098829E-006;-7.985973128602574E-007;-6.442463995495166E-006;6.105418683237172E-006;-1.221281246990369E-006;1.003782030680240E+000;-8.502471412048490E-002;1.586789110611402E-006;6.352716678923024E-006;1.467162574579087E-004;2.468706482725048E-004;8.390242883270802E-007;5.177223856725473E-006;-3.560294737262535E-006;6.611967753555280E-006;-3.764627362082940E-001;1.335517514408028E-001;-3.764627362082940E-001;1.335517514408028E-001;
